Title: * C:\Users\lokes\Desktop\RL_Project\RL_Project\custom_rl_circuit.asc
Date: Sat May 10 21:25:13 2025
Plotname: AC Analysis
Flags: complex forward log
No. Variables: 9
No. Points:          101
Offset:    0.0000000000000000e+00
Command: Linear Technology Corporation LTspice
Variables:
	0	frequency	frequency
	1	V(n001)	voltage
	2	V(vout)	voltage
	3	V(n002)	voltage
	4	V(n003)	voltage
	5	I(R1)	device_current
	6	I(R2)	device_current
	7	I(R3)	device_current
	8	I(Ac1)	device_current
Values:
0		1.000000000000000e+00,0.000000000000000e+00
	1.000000000000000e+00,0.000000000000000e+00
	9.999999999999998e-01,0.000000000000000e+00
	0.000000000000000e+00,0.000000000000000e+00
	9.999999999999998e-01,0.000000000000000e+00
	-7.401486830834377e-20,0.000000000000000e+00
	0.000000000000000e+00,0.000000000000000e+00
	0.000000000000000e+00,0.000000000000000e+00
	-5.421010862427522e-20,0.000000000000000e+00
1		1.071773462536293e+00,0.000000000000000e+00
	1.000000000000000e+00,0.000000000000000e+00
	9.999999999999998e-01,0.000000000000000e+00
	0.000000000000000e+00,0.000000000000000e+00
	9.999999999999998e-01,0.000000000000000e+00
	-7.401486830834377e-20,0.000000000000000e+00
	0.000000000000000e+00,0.000000000000000e+00
	0.000000000000000e+00,0.000000000000000e+00
	-5.421010862427522e-20,0.000000000000000e+00
2		1.148698354997035e+00,0.000000000000000e+00
	1.000000000000000e+00,0.000000000000000e+00
	9.999999999999998e-01,0.000000000000000e+00
	0.000000000000000e+00,0.000000000000000e+00
	9.999999999999998e-01,0.000000000000000e+00
	-7.401486830834377e-20,0.000000000000000e+00
	0.000000000000000e+00,0.000000000000000e+00
	0.000000000000000e+00,0.000000000000000e+00
	-5.421010862427522e-20,0.000000000000000e+00
3		1.231144413344916e+00,0.000000000000000e+00
	1.000000000000000e+00,0.000000000000000e+00
	9.999999999999998e-01,0.000000000000000e+00
	0.000000000000000e+00,0.000000000000000e+00
	9.999999999999998e-01,0.000000000000000e+00
	-7.401486830834377e-20,0.000000000000000e+00
	0.000000000000000e+00,0.000000000000000e+00
	0.000000000000000e+00,0.000000000000000e+00
	-5.421010862427522e-20,0.000000000000000e+00
4		1.319507910772894e+00,0.000000000000000e+00
	1.000000000000000e+00,0.000000000000000e+00
	9.999999999999998e-01,0.000000000000000e+00
	0.000000000000000e+00,0.000000000000000e+00
	9.999999999999998e-01,0.000000000000000e+00
	-7.401486830834377e-20,0.000000000000000e+00
	0.000000000000000e+00,0.000000000000000e+00
	0.000000000000000e+00,0.000000000000000e+00
	-5.421010862427522e-20,0.000000000000000e+00
5		1.414213562373095e+00,0.000000000000000e+00
	1.000000000000000e+00,0.000000000000000e+00
	9.999999999999998e-01,0.000000000000000e+00
	0.000000000000000e+00,0.000000000000000e+00
	9.999999999999998e-01,0.000000000000000e+00
	-7.401486830834377e-20,0.000000000000000e+00
	0.000000000000000e+00,0.000000000000000e+00
	0.000000000000000e+00,0.000000000000000e+00
	-5.421010862427522e-20,0.000000000000000e+00
6		1.515716566510398e+00,0.000000000000000e+00
	1.000000000000000e+00,0.000000000000000e+00
	9.999999999999998e-01,0.000000000000000e+00
	0.000000000000000e+00,0.000000000000000e+00
	9.999999999999998e-01,0.000000000000000e+00
	-7.401486830834377e-20,0.000000000000000e+00
	0.000000000000000e+00,0.000000000000000e+00
	0.000000000000000e+00,0.000000000000000e+00
	-5.421010862427522e-20,0.000000000000000e+00
7		1.624504792712471e+00,0.000000000000000e+00
	1.000000000000000e+00,0.000000000000000e+00
	9.999999999999998e-01,0.000000000000000e+00
	0.000000000000000e+00,0.000000000000000e+00
	9.999999999999998e-01,0.000000000000000e+00
	-7.401486830834377e-20,0.000000000000000e+00
	0.000000000000000e+00,0.000000000000000e+00
	0.000000000000000e+00,0.000000000000000e+00
	-5.421010862427522e-20,0.000000000000000e+00
8		1.741101126592248e+00,0.000000000000000e+00
	1.000000000000000e+00,0.000000000000000e+00
	9.999999999999998e-01,0.000000000000000e+00
	0.000000000000000e+00,0.000000000000000e+00
	9.999999999999998e-01,0.000000000000000e+00
	-7.401486830834377e-20,0.000000000000000e+00
	0.000000000000000e+00,0.000000000000000e+00
	0.000000000000000e+00,0.000000000000000e+00
	-5.421010862427522e-20,0.000000000000000e+00
9		1.866065983073614e+00,0.000000000000000e+00
	1.000000000000000e+00,0.000000000000000e+00
	9.999999999999998e-01,0.000000000000000e+00
	0.000000000000000e+00,0.000000000000000e+00
	9.999999999999998e-01,0.000000000000000e+00
	-7.401486830834377e-20,0.000000000000000e+00
	0.000000000000000e+00,0.000000000000000e+00
	0.000000000000000e+00,0.000000000000000e+00
	-5.421010862427522e-20,0.000000000000000e+00
10		2.000000000000000e+00,0.000000000000000e+00
	1.000000000000000e+00,0.000000000000000e+00
	9.999999999999998e-01,0.000000000000000e+00
	0.000000000000000e+00,0.000000000000000e+00
	9.999999999999998e-01,0.000000000000000e+00
	-7.401486830834377e-20,0.000000000000000e+00
	0.000000000000000e+00,0.000000000000000e+00
	0.000000000000000e+00,0.000000000000000e+00
	-5.421010862427522e-20,0.000000000000000e+00
11		2.143546925072586e+00,0.000000000000000e+00
	1.000000000000000e+00,0.000000000000000e+00
	9.999999999999998e-01,0.000000000000000e+00
	0.000000000000000e+00,0.000000000000000e+00
	9.999999999999998e-01,0.000000000000000e+00
	-7.401486830834377e-20,0.000000000000000e+00
	0.000000000000000e+00,0.000000000000000e+00
	0.000000000000000e+00,0.000000000000000e+00
	-5.421010862427522e-20,0.000000000000000e+00
12		2.297396709994069e+00,0.000000000000000e+00
	1.000000000000000e+00,0.000000000000000e+00
	9.999999999999998e-01,0.000000000000000e+00
	0.000000000000000e+00,0.000000000000000e+00
	9.999999999999998e-01,0.000000000000000e+00
	-7.401486830834377e-20,0.000000000000000e+00
	0.000000000000000e+00,0.000000000000000e+00
	0.000000000000000e+00,0.000000000000000e+00
	-5.421010862427522e-20,0.000000000000000e+00
13		2.462288826689832e+00,0.000000000000000e+00
	1.000000000000000e+00,0.000000000000000e+00
	9.999999999999998e-01,0.000000000000000e+00
	0.000000000000000e+00,0.000000000000000e+00
	9.999999999999998e-01,0.000000000000000e+00
	-7.401486830834377e-20,0.000000000000000e+00
	0.000000000000000e+00,0.000000000000000e+00
	0.000000000000000e+00,0.000000000000000e+00
	-5.421010862427522e-20,0.000000000000000e+00
14		2.639015821545788e+00,0.000000000000000e+00
	1.000000000000000e+00,0.000000000000000e+00
	9.999999999999998e-01,0.000000000000000e+00
	0.000000000000000e+00,0.000000000000000e+00
	9.999999999999998e-01,0.000000000000000e+00
	-7.401486830834377e-20,0.000000000000000e+00
	0.000000000000000e+00,0.000000000000000e+00
	0.000000000000000e+00,0.000000000000000e+00
	-5.421010862427522e-20,0.000000000000000e+00
15		2.828427124746189e+00,0.000000000000000e+00
	1.000000000000000e+00,0.000000000000000e+00
	9.999999999999998e-01,0.000000000000000e+00
	0.000000000000000e+00,0.000000000000000e+00
	9.999999999999998e-01,0.000000000000000e+00
	-7.401486830834377e-20,0.000000000000000e+00
	0.000000000000000e+00,0.000000000000000e+00
	0.000000000000000e+00,0.000000000000000e+00
	-5.421010862427522e-20,0.000000000000000e+00
16		3.031433133020795e+00,0.000000000000000e+00
	1.000000000000000e+00,0.000000000000000e+00
	9.999999999999998e-01,0.000000000000000e+00
	0.000000000000000e+00,0.000000000000000e+00
	9.999999999999998e-01,0.000000000000000e+00
	-7.401486830834377e-20,0.000000000000000e+00
	0.000000000000000e+00,0.000000000000000e+00
	0.000000000000000e+00,0.000000000000000e+00
	-5.421010862427522e-20,0.000000000000000e+00
17		3.249009585424941e+00,0.000000000000000e+00
	1.000000000000000e+00,0.000000000000000e+00
	9.999999999999998e-01,0.000000000000000e+00
	0.000000000000000e+00,0.000000000000000e+00
	9.999999999999998e-01,0.000000000000000e+00
	-7.401486830834377e-20,0.000000000000000e+00
	0.000000000000000e+00,0.000000000000000e+00
	0.000000000000000e+00,0.000000000000000e+00
	-5.421010862427522e-20,0.000000000000000e+00
18		3.482202253184495e+00,0.000000000000000e+00
	1.000000000000000e+00,0.000000000000000e+00
	9.999999999999998e-01,0.000000000000000e+00
	0.000000000000000e+00,0.000000000000000e+00
	9.999999999999998e-01,0.000000000000000e+00
	-7.401486830834377e-20,0.000000000000000e+00
	0.000000000000000e+00,0.000000000000000e+00
	0.000000000000000e+00,0.000000000000000e+00
	-5.421010862427522e-20,0.000000000000000e+00
19		3.732131966147227e+00,0.000000000000000e+00
	1.000000000000000e+00,0.000000000000000e+00
	9.999999999999998e-01,0.000000000000000e+00
	0.000000000000000e+00,0.000000000000000e+00
	9.999999999999998e-01,0.000000000000000e+00
	-7.401486830834377e-20,0.000000000000000e+00
	0.000000000000000e+00,0.000000000000000e+00
	0.000000000000000e+00,0.000000000000000e+00
	-5.421010862427522e-20,0.000000000000000e+00
20		3.999999999999997e+00,0.000000000000000e+00
	1.000000000000000e+00,0.000000000000000e+00
	9.999999999999998e-01,0.000000000000000e+00
	0.000000000000000e+00,0.000000000000000e+00
	9.999999999999998e-01,0.000000000000000e+00
	-7.401486830834377e-20,0.000000000000000e+00
	0.000000000000000e+00,0.000000000000000e+00
	0.000000000000000e+00,0.000000000000000e+00
	-5.421010862427522e-20,0.000000000000000e+00
21		4.287093850145170e+00,0.000000000000000e+00
	1.000000000000000e+00,0.000000000000000e+00
	9.999999999999998e-01,0.000000000000000e+00
	0.000000000000000e+00,0.000000000000000e+00
	9.999999999999998e-01,0.000000000000000e+00
	-7.401486830834377e-20,0.000000000000000e+00
	0.000000000000000e+00,0.000000000000000e+00
	0.000000000000000e+00,0.000000000000000e+00
	-5.421010862427522e-20,0.000000000000000e+00
22		4.594793419988137e+00,0.000000000000000e+00
	1.000000000000000e+00,0.000000000000000e+00
	9.999999999999998e-01,0.000000000000000e+00
	0.000000000000000e+00,0.000000000000000e+00
	9.999999999999998e-01,0.000000000000000e+00
	-7.401486830834377e-20,0.000000000000000e+00
	0.000000000000000e+00,0.000000000000000e+00
	0.000000000000000e+00,0.000000000000000e+00
	-5.421010862427522e-20,0.000000000000000e+00
23		4.924577653379662e+00,0.000000000000000e+00
	1.000000000000000e+00,0.000000000000000e+00
	9.999999999999998e-01,0.000000000000000e+00
	0.000000000000000e+00,0.000000000000000e+00
	9.999999999999998e-01,0.000000000000000e+00
	-7.401486830834377e-20,0.000000000000000e+00
	0.000000000000000e+00,0.000000000000000e+00
	0.000000000000000e+00,0.000000000000000e+00
	-5.421010862427522e-20,0.000000000000000e+00
24		5.278031643091573e+00,0.000000000000000e+00
	1.000000000000000e+00,0.000000000000000e+00
	9.999999999999998e-01,0.000000000000000e+00
	0.000000000000000e+00,0.000000000000000e+00
	9.999999999999998e-01,0.000000000000000e+00
	-7.401486830834377e-20,0.000000000000000e+00
	0.000000000000000e+00,0.000000000000000e+00
	0.000000000000000e+00,0.000000000000000e+00
	-5.421010862427522e-20,0.000000000000000e+00
25		5.656854249492376e+00,0.000000000000000e+00
	1.000000000000000e+00,0.000000000000000e+00
	9.999999999999998e-01,0.000000000000000e+00
	0.000000000000000e+00,0.000000000000000e+00
	9.999999999999998e-01,0.000000000000000e+00
	-7.401486830834377e-20,0.000000000000000e+00
	0.000000000000000e+00,0.000000000000000e+00
	0.000000000000000e+00,0.000000000000000e+00
	-5.421010862427522e-20,0.000000000000000e+00
26		6.062866266041588e+00,0.000000000000000e+00
	1.000000000000000e+00,0.000000000000000e+00
	9.999999999999998e-01,0.000000000000000e+00
	0.000000000000000e+00,0.000000000000000e+00
	9.999999999999998e-01,0.000000000000000e+00
	-7.401486830834377e-20,0.000000000000000e+00
	0.000000000000000e+00,0.000000000000000e+00
	0.000000000000000e+00,0.000000000000000e+00
	-5.421010862427522e-20,0.000000000000000e+00
27		6.498019170849878e+00,0.000000000000000e+00
	1.000000000000000e+00,0.000000000000000e+00
	9.999999999999998e-01,0.000000000000000e+00
	0.000000000000000e+00,0.000000000000000e+00
	9.999999999999998e-01,0.000000000000000e+00
	-7.401486830834377e-20,0.000000000000000e+00
	0.000000000000000e+00,0.000000000000000e+00
	0.000000000000000e+00,0.000000000000000e+00
	-5.421010862427522e-20,0.000000000000000e+00
28		6.964404506368987e+00,0.000000000000000e+00
	1.000000000000000e+00,0.000000000000000e+00
	9.999999999999998e-01,0.000000000000000e+00
	0.000000000000000e+00,0.000000000000000e+00
	9.999999999999998e-01,0.000000000000000e+00
	-7.401486830834377e-20,0.000000000000000e+00
	0.000000000000000e+00,0.000000000000000e+00
	0.000000000000000e+00,0.000000000000000e+00
	-5.421010862427522e-20,0.000000000000000e+00
29		7.464263932294452e+00,0.000000000000000e+00
	1.000000000000000e+00,0.000000000000000e+00
	9.999999999999998e-01,0.000000000000000e+00
	0.000000000000000e+00,0.000000000000000e+00
	9.999999999999998e-01,0.000000000000000e+00
	-7.401486830834377e-20,0.000000000000000e+00
	0.000000000000000e+00,0.000000000000000e+00
	0.000000000000000e+00,0.000000000000000e+00
	-5.421010862427522e-20,0.000000000000000e+00
30		7.999999999999992e+00,0.000000000000000e+00
	1.000000000000000e+00,0.000000000000000e+00
	9.999999999999998e-01,0.000000000000000e+00
	0.000000000000000e+00,0.000000000000000e+00
	9.999999999999998e-01,0.000000000000000e+00
	-7.401486830834377e-20,0.000000000000000e+00
	0.000000000000000e+00,0.000000000000000e+00
	0.000000000000000e+00,0.000000000000000e+00
	-5.421010862427522e-20,0.000000000000000e+00
31		8.574187700290336e+00,0.000000000000000e+00
	1.000000000000000e+00,0.000000000000000e+00
	9.999999999999998e-01,0.000000000000000e+00
	0.000000000000000e+00,0.000000000000000e+00
	9.999999999999998e-01,0.000000000000000e+00
	-7.401486830834377e-20,0.000000000000000e+00
	0.000000000000000e+00,0.000000000000000e+00
	0.000000000000000e+00,0.000000000000000e+00
	-5.421010862427522e-20,0.000000000000000e+00
32		9.189586839976270e+00,0.000000000000000e+00
	1.000000000000000e+00,0.000000000000000e+00
	9.999999999999998e-01,0.000000000000000e+00
	0.000000000000000e+00,0.000000000000000e+00
	9.999999999999998e-01,0.000000000000000e+00
	-7.401486830834377e-20,0.000000000000000e+00
	0.000000000000000e+00,0.000000000000000e+00
	0.000000000000000e+00,0.000000000000000e+00
	-5.421010862427522e-20,0.000000000000000e+00
33		9.849155306759320e+00,0.000000000000000e+00
	1.000000000000000e+00,0.000000000000000e+00
	9.999999999999998e-01,0.000000000000000e+00
	0.000000000000000e+00,0.000000000000000e+00
	9.999999999999998e-01,0.000000000000000e+00
	-7.401486830834377e-20,0.000000000000000e+00
	0.000000000000000e+00,0.000000000000000e+00
	0.000000000000000e+00,0.000000000000000e+00
	-5.421010862427522e-20,0.000000000000000e+00
34		1.055606328618314e+01,0.000000000000000e+00
	1.000000000000000e+00,0.000000000000000e+00
	9.999999999999998e-01,0.000000000000000e+00
	0.000000000000000e+00,0.000000000000000e+00
	9.999999999999998e-01,0.000000000000000e+00
	-7.401486830834377e-20,0.000000000000000e+00
	0.000000000000000e+00,0.000000000000000e+00
	0.000000000000000e+00,0.000000000000000e+00
	-5.421010862427522e-20,0.000000000000000e+00
35		1.131370849898475e+01,0.000000000000000e+00
	1.000000000000000e+00,0.000000000000000e+00
	9.999999999999998e-01,0.000000000000000e+00
	0.000000000000000e+00,0.000000000000000e+00
	9.999999999999998e-01,0.000000000000000e+00
	-7.401486830834377e-20,0.000000000000000e+00
	0.000000000000000e+00,0.000000000000000e+00
	0.000000000000000e+00,0.000000000000000e+00
	-5.421010862427522e-20,0.000000000000000e+00
36		1.212573253208317e+01,0.000000000000000e+00
	1.000000000000000e+00,0.000000000000000e+00
	9.999999999999998e-01,0.000000000000000e+00
	0.000000000000000e+00,0.000000000000000e+00
	9.999999999999998e-01,0.000000000000000e+00
	-7.401486830834377e-20,0.000000000000000e+00
	0.000000000000000e+00,0.000000000000000e+00
	0.000000000000000e+00,0.000000000000000e+00
	-5.421010862427522e-20,0.000000000000000e+00
37		1.299603834169975e+01,0.000000000000000e+00
	1.000000000000000e+00,0.000000000000000e+00
	9.999999999999998e-01,0.000000000000000e+00
	0.000000000000000e+00,0.000000000000000e+00
	9.999999999999998e-01,0.000000000000000e+00
	-7.401486830834377e-20,0.000000000000000e+00
	0.000000000000000e+00,0.000000000000000e+00
	0.000000000000000e+00,0.000000000000000e+00
	-5.421010862427522e-20,0.000000000000000e+00
38		1.392880901273797e+01,0.000000000000000e+00
	1.000000000000000e+00,0.000000000000000e+00
	9.999999999999998e-01,0.000000000000000e+00
	0.000000000000000e+00,0.000000000000000e+00
	9.999999999999998e-01,0.000000000000000e+00
	-7.401486830834377e-20,0.000000000000000e+00
	0.000000000000000e+00,0.000000000000000e+00
	0.000000000000000e+00,0.000000000000000e+00
	-5.421010862427522e-20,0.000000000000000e+00
39		1.492852786458890e+01,0.000000000000000e+00
	1.000000000000000e+00,0.000000000000000e+00
	9.999999999999998e-01,0.000000000000000e+00
	0.000000000000000e+00,0.000000000000000e+00
	9.999999999999998e-01,0.000000000000000e+00
	-7.401486830834377e-20,0.000000000000000e+00
	0.000000000000000e+00,0.000000000000000e+00
	0.000000000000000e+00,0.000000000000000e+00
	-5.421010862427522e-20,0.000000000000000e+00
40		1.599999999999998e+01,0.000000000000000e+00
	1.000000000000000e+00,0.000000000000000e+00
	9.999999999999998e-01,0.000000000000000e+00
	0.000000000000000e+00,0.000000000000000e+00
	9.999999999999998e-01,0.000000000000000e+00
	-7.401486830834377e-20,0.000000000000000e+00
	0.000000000000000e+00,0.000000000000000e+00
	0.000000000000000e+00,0.000000000000000e+00
	-5.421010862427522e-20,0.000000000000000e+00
41		1.714837540058067e+01,0.000000000000000e+00
	1.000000000000000e+00,0.000000000000000e+00
	9.999999999999998e-01,0.000000000000000e+00
	0.000000000000000e+00,0.000000000000000e+00
	9.999999999999998e-01,0.000000000000000e+00
	-7.401486830834377e-20,0.000000000000000e+00
	0.000000000000000e+00,0.000000000000000e+00
	0.000000000000000e+00,0.000000000000000e+00
	-5.421010862427522e-20,0.000000000000000e+00
42		1.837917367995254e+01,0.000000000000000e+00
	1.000000000000000e+00,0.000000000000000e+00
	9.999999999999998e-01,0.000000000000000e+00
	0.000000000000000e+00,0.000000000000000e+00
	9.999999999999998e-01,0.000000000000000e+00
	-7.401486830834377e-20,0.000000000000000e+00
	0.000000000000000e+00,0.000000000000000e+00
	0.000000000000000e+00,0.000000000000000e+00
	-5.421010862427522e-20,0.000000000000000e+00
43		1.969831061351864e+01,0.000000000000000e+00
	1.000000000000000e+00,0.000000000000000e+00
	9.999999999999998e-01,0.000000000000000e+00
	0.000000000000000e+00,0.000000000000000e+00
	9.999999999999998e-01,0.000000000000000e+00
	-7.401486830834377e-20,0.000000000000000e+00
	0.000000000000000e+00,0.000000000000000e+00
	0.000000000000000e+00,0.000000000000000e+00
	-5.421010862427522e-20,0.000000000000000e+00
44		2.111212657236628e+01,0.000000000000000e+00
	1.000000000000000e+00,0.000000000000000e+00
	9.999999999999998e-01,0.000000000000000e+00
	0.000000000000000e+00,0.000000000000000e+00
	9.999999999999998e-01,0.000000000000000e+00
	-7.401486830834377e-20,0.000000000000000e+00
	0.000000000000000e+00,0.000000000000000e+00
	0.000000000000000e+00,0.000000000000000e+00
	-5.421010862427522e-20,0.000000000000000e+00
45		2.262741699796949e+01,0.000000000000000e+00
	1.000000000000000e+00,0.000000000000000e+00
	9.999999999999998e-01,0.000000000000000e+00
	0.000000000000000e+00,0.000000000000000e+00
	9.999999999999998e-01,0.000000000000000e+00
	-7.401486830834377e-20,0.000000000000000e+00
	0.000000000000000e+00,0.000000000000000e+00
	0.000000000000000e+00,0.000000000000000e+00
	-5.421010862427522e-20,0.000000000000000e+00
46		2.425146506416634e+01,0.000000000000000e+00
	1.000000000000000e+00,0.000000000000000e+00
	9.999999999999998e-01,0.000000000000000e+00
	0.000000000000000e+00,0.000000000000000e+00
